Title: vs1  vdd 0 dc 5
Date: Sat Jun 10 23:21:52  2017
Plotname: Transient Analysis
Flags: real
No. Variables: 11
No. Points: 1060    
Variables:
	0	time	time
	1	v(nor1b)	voltage
	2	v(nor2b)	voltage
	3	v(nor1q)	voltage
	4	v(nor1a)	voltage
	5	v(vdd)	voltage
	6	v(nor2q)	voltage
	7	v(nor2a)	voltage
	8	i(vs4)	current
	9	i(vs3)	current
	10	i(vs2)	current
Values:
0		0.000000000000000e+00
	0.000000000000000e+00
	0.000000000000000e+00
	0.000000000000000e+00
	4.944056470010626e-22
	-1.147363714784270e-22
	-2.294727429568540e-22
	1.141901711979803e-21
	-2.744949545283193e-27
	9.341765818578548e-26
	2.010260579117481e-50
1		1.000000000000000e-06
	0.000000000000000e+00
	0.000000000000000e+00
	5.000000000000001e-02
	4.707000542662799e-02
	4.959746685578645e-02
	4.919493371157289e-02
	4.778276789215143e-02
	-8.230369544712235e-07
	1.842796093117925e-07
	1.872448173446641e-07
2		1.036529345780563e-06
	0.000000000000000e+00
	0.000000000000000e+00
	5.182646728902814e-02
	4.880582151280787e-02
	5.141722464810466e-02
	5.100798200718117e-02
	4.954540842675968e-02
	-8.318612030495942e-07
	1.833710913271339e-07
	1.846544834570155e-07
3		1.109588037341688e-06
	0.000000000000000e+00
	0.000000000000000e+00
	5.547940186708441e-02
	5.232300058471949e-02
	5.506093559718155e-02
	5.464246932727868e-02
	5.310818017746252e-02
	-8.450547500406247e-07
	1.838150356806770e-07
	1.842487957322760e-07
4		1.255705420463939e-06
	0.000000000000000e+00
	0.000000000000000e+00
	6.278527102319696e-02
	5.951817577879696e-02
	6.235921582509586e-02
	6.193316062699475e-02
	6.035194815231592e-02
	-8.550300056031634e-07
	1.837213623294524e-07
	1.839110457179514e-07
5		1.547940186708441e-06
	0.000000000000000e+00
	0.000000000000000e+00
	7.739700933542205e-02
	7.406968883977243e-02
	7.696648156531799e-02
	7.653595379521390e-02
	7.492715785359630e-02
	-8.613747250474368e-07
	1.825158168576342e-07
	1.824111008242460e-07
6		1.908560862521795e-06
	0.000000000000000e+00
	0.000000000000000e+00
	9.542804312608973e-02
	9.204999188195785e-02
	9.499419236434814e-02
	9.456034160260657e-02
	9.291171424433704e-02
	-8.686657934006692e-07
	1.810582479066180e-07
	1.811579514300965e-07
7		2.629802214148501e-06
	0.000000000000000e+00
	0.000000000000000e+00
	1.314901107074251e-01
	1.279802893787413e-01
	1.310456991605207e-01
	1.306012876136164e-01
	1.288611030089545e-01
	-8.897973951330074e-07
	1.781808193295003e-07
	1.781536546353030e-07
8		4.072284917401915e-06
	0.000000000000000e+00
	0.000000000000000e+00
	2.036142458700957e-01
	1.996956943658888e-01
	2.031248983604951e-01
	2.026355508508945e-01
	2.006568748901961e-01
	-9.810148939581875e-07
	1.728175291389831e-07
	1.731448636640694e-07
9		6.538647288861260e-06
	0.000000000000000e+00
	0.000000000000000e+00
	3.269323644430630e-01
	3.207383228807797e-01
	3.258632982624792e-01
	3.247942320818953e-01
	3.227361069954102e-01
	-2.135629966523722e-06
	1.629216516389955e-07
	1.655556141541939e-07
10		9.047166528905584e-06
	0.000000000000000e+00
	0.000000000000000e+00
	4.523583264452792e-01
	4.234524078442071e-01
	4.405974628907940e-01
	4.288365993363087e-01
	4.437036217139607e-01
	-1.949045290261520e-05
	1.087671780493577e-07
	1.597947601453861e-07
11		1.140651805513016e-05
	0.000000000000000e+00
	0.000000000000000e+00
	5.703259027565079e-01
	3.290718762484139e-01
	4.433941866562678e-01
	3.164624705560278e-01
	5.393928660697891e-01
	-1.313443007321391e-04
	-4.112053006833281e-07
	1.547354967305526e-07
12		1.379761979593183e-05
	0.000000000000000e+00
	0.000000000000000e+00
	6.898809897965916e-01
	1.504739020438269e-01
	4.186883263787231e-01
	1.474956629608546e-01
	5.697983130639604e-01
	-2.835885791522275e-04
	-6.253068972496583e-08
	1.508773708641934e-07
13		1.507940450509666e-05
	0.000000000000000e+00
	0.000000000000000e+00
	7.539702252548327e-01
	1.313052950872527e-01
	4.414475336345521e-01
	1.289248420142715e-01
	5.758776782757538e-01
	-3.306539568423972e-04
	-3.494365731083065e-08
	1.486422221816476e-07
14		1.656828265917011e-05
	0.000000000000000e+00
	0.000000000000000e+00
	8.284141329585053e-01
	1.168630602097107e-01
	4.716044160793122e-01
	1.147946992001191e-01
	5.816419456796906e-01
	-3.818277223150979e-04
	-2.802762004839020e-08
	1.467036251824102e-07
15		1.802670166646394e-05
	0.000000000000000e+00
	0.000000000000000e+00
	9.013350833231969e-01
	1.075655243019192e-01
	5.035502356547377e-01
	1.057653879862785e-01
	5.863385259428170e-01
	-4.295747321669818e-04
	-1.193779100461282e-08
	1.445156583326326e-07
16		2.094353968105160e-05
	0.000000000000000e+00
	0.000000000000000e+00
	1.047176984052580e+00
	9.493225359263611e-02
	5.702124211580917e-01
	9.324785826360321e-02
	5.942342016928093e-01
	-5.225735799074815e-04
	-1.479625345739153e-08
	1.411273579211331e-07
17		2.596721370578726e-05
	0.000000000000000e+00
	0.000000000000000e+00
	1.298360685289363e+00
	8.232536417480248e-02
	6.896308061440892e-01
	8.090092699881551e-02
	6.047849341626982e-01
	-6.783467411087263e-04
	8.846443391657332e-10
	1.356795625023407e-07
18		3.355772488845306e-05
	0.000000000000000e+00
	0.000000000000000e+00
	1.677886244422653e+00
	7.181790987401551e-02
	8.741543821307095e-01
	7.042251983876598e-02
	6.168309072431180e-01
	-9.101206571610065e-04
	-7.313179548693021e-09
	1.295868015134996e-07
19		4.326134479960039e-05
	0.000000000000000e+00
	0.000000000000000e+00
	2.163067239980019e+00
	6.416870955783908e-02
	1.113012810048789e+00
	6.295838011755857e-02
	6.284453933905244e-01
	-1.203746371422731e-03
	5.081120892228384e-09
	1.232037181406663e-07
20		5.872654787562701e-05
	0.000000000000000e+00
	0.000000000000000e+00
	2.936327393781351e+00
	5.754168818970225e-02
	1.496331492579148e+00
	5.633559137694466e-02
	6.423365853127017e-01
	-1.669648070651508e-03
	-5.031538186326420e-09
	1.158809734780176e-07
21		8.177231577807364e-05
	0.000000000000000e+00
	0.000000000000000e+00
	4.088615788903682e+00
	5.247020229820232e-02
	2.070028248485335e+00
	5.144070806698724e-02
	6.575092993646479e-01
	-2.361895901940025e-03
	6.479889846384104e-09
	1.080046888503147e-07
22		1.000000000000000e-04
	0.000000000000000e+00
	0.000000000000000e+00
	5.000000000000000e+00
	5.050004594006535e-02
	2.524714443411266e+00
	4.942888682253190e-02
	6.669207289948761e-01
	-2.908821698480057e-03
	-4.397810149832359e-09
	1.038619340758890e-07
23		1.000001000000000e-04
	0.000000000000000e+00
	0.000000000000000e+00
	5.000000000000000e+00
	5.049846361053280e-02
	2.524714167392312e+00
	4.942833478462515e-02
	6.669205788309654e-01
	-2.908644523016646e-03
	-1.439522718876211e-08
	2.793719673588116e-08
24		1.000003000000000e-04
	0.000000000000000e+00
	0.000000000000000e+00
	5.000000000000000e+00
	5.049534651052290e-02
	2.524713744067584e+00
	4.942748813516779e-02
	6.669202859518339e-01
	-2.908621780188803e-03
	-1.385687505196668e-08
	-9.415056099323159e-09
25		1.000007000000000e-04
	0.000000000000000e+00
	0.000000000000000e+00
	5.000000000000000e+00
	5.048915199444414e-02
	2.524713485045744e+00
	4.942697009148764e-02
	6.669198281691474e-01
	-2.908639208577091e-03
	3.306609741061690e-09
	1.041706831471046e-08
26		1.000010000000000e-04
	0.000000000000000e+00
	0.000000000000000e+00
	5.000000000000000e+00
	5.048452124718676e-02
	2.524713622071558e+00
	4.942724414311524e-02
	6.669195928941674e-01
	-2.908624171717555e-03
	5.568864802917061e-09
	-2.634656125959148e-09
27		1.000010800000000e-04
	0.000000000000000e+00
	0.000000000000000e+00
	4.999995999999999e+00
	5.048208789607470e-02
	2.524711681447950e+00
	4.942736289590010e-02
	6.669195367582109e-01
	-2.908470581700406e-03
	6.403413510536454e-09
	-7.064891840783009e-08
28		1.000012400000000e-04
	0.000000000000000e+00
	0.000000000000000e+00
	4.999988000000000e+00
	5.047725635880163e-02
	2.524707799168749e+00
	4.942759833749859e-02
	6.669194284505348e-01
	-2.908441398596473e-03
	6.930881957874398e-09
	-1.095309968453964e-07
29		1.000015600000000e-04
	0.000000000000000e+00
	0.000000000000000e+00
	4.999972000000000e+00
	5.046764305084544e-02
	2.524700022318840e+00
	4.942804463767999e-02
	6.669192277957723e-01
	-2.908448099845140e-03
	6.324639889582337e-09
	-9.252424127350048e-08
30		1.000022000000000e-04
	0.000000000000000e+00
	0.000000000000000e+00
	4.999940000000000e+00
	5.044854289544148e-02
	2.524684390327706e+00
	4.942878065541228e-02
	6.669188660143736e-01
	-2.908413133779764e-03
	5.133285534489329e-09
	-1.043602033134560e-07
31		1.000034800000000e-04
	0.000000000000000e+00
	0.000000000000000e+00
	4.999876000000000e+00
	5.041089995137034e-02
	2.524652803308514e+00
	4.942960661702803e-02
	6.669182088113992e-01
	-2.908387323292461e-03
	2.631903351629620e-09
	-9.439239369650381e-08
32		1.000060400000000e-04
	0.000000000000000e+00
	0.000000000000000e+00
	4.999747999999999e+00
	5.033769551149786e-02
	2.524588974121808e+00
	4.942994824361726e-02
	6.669169200153607e-01
	-2.908294555723057e-03
	1.252433165515346e-09
	-1.035601964747991e-07
33		1.000111600000000e-04
	0.000000000000000e+00
	0.000000000000000e+00
	4.999491999999999e+00
	5.019922882642283e-02
	2.524460988976446e+00
	4.942997795289376e-02
	6.669142958300296e-01
	-2.908150661660613e-03
	1.640166568415356e-09
	-9.476541268624113e-08
34		1.000214000000001e-04
	0.000000000000000e+00
	0.000000000000000e+00
	4.998979999999998e+00
	4.995123381853492e-02
	2.524205232934310e+00
	4.943046586862166e-02
	6.669090900021808e-01
	-2.907822849375519e-03
	1.566848884230539e-09
	-1.033843042382339e-07
35		1.000418800000001e-04
	0.000000000000000e+00
	0.000000000000000e+00
	4.997955999999995e+00
	4.955228943032831e-02
	2.523693695270657e+00
	4.943139054131956e-02
	6.668988266549799e-01
	-2.907210573091179e-03
	1.620955166050229e-09
	-9.485945864369619e-08
36		1.000828400000002e-04
	0.000000000000000e+00
	0.000000000000000e+00
	4.995907999999991e+00
	4.903097913198373e-02
	2.522670943684798e+00
	4.943388736960454e-02
	6.668786941882554e-01
	-2.905953497372327e-03
	1.682943999636290e-09
	-1.033531483252467e-07
37		1.001647600000004e-04
	0.000000000000000e+00
	0.000000000000000e+00
	4.991811999999983e+00
	4.857745814363246e-02
	2.520625887593116e+00
	4.943977518625006e-02
	6.668392840010419e-01
	-2.903496615997980e-03
	1.701247074186103e-09
	-9.490588527445679e-08
38		1.003286000000007e-04
	0.000000000000000e+00
	0.000000000000000e+00
	4.983619999999964e+00
	4.842241663719277e-02
	2.516536519981409e+00
	4.945303996285397e-02
	6.667614794140585e-01
	-2.898564069593990e-03
	1.749918120249131e-09
	-1.033919122014844e-07
39		1.006562800000014e-04
	0.000000000000000e+00
	0.000000000000000e+00
	4.967235999999928e+00
	4.846834074328703e-02
	2.508358136027641e+00
	4.948027205535452e-02
	6.666060626092466e-01
	-2.888749465427942e-03
	1.717693003982366e-09
	-9.501063774402924e-08
40		1.013082583141753e-04
	0.000000000000000e+00
	0.000000000000000e+00
	4.934637084291237e+00
	4.851244261933057e-02
	2.492086210576951e+00
	4.953533686266394e-02
	6.662953900895091e-01
	-2.869179677297051e-03
	1.761222452085171e-09
	-1.035881390386243e-07
41		1.026122149425229e-04
	0.000000000000000e+00
	0.000000000000000e+00
	4.869439252873858e+00
	4.862968541877056e-02
	2.459544035068852e+00
	4.964881726384614e-02
	6.656685597633983e-01
	-2.830079998167978e-03
	1.739409801321710e-09
	-9.541244648380219e-08
42		1.052201281992181e-04
	0.000000000000000e+00
	0.000000000000000e+00
	4.739043590039097e+00
	4.885793695549127e-02
	2.394466880643458e+00
	4.989017124781921e-02
	6.643920069130729e-01
	-2.751834629283190e-03
	1.807692751004210e-09
	-1.045234206905753e-07
43		1.104359547126085e-04
	0.000000000000000e+00
	0.000000000000000e+00
	4.478252264369577e+00
	4.939382967674141e-02
	2.264343696853841e+00
	5.043512933810292e-02
	6.617412449693961e-01
	-2.595363413989471e-03
	1.840120202807448e-09
	-9.735305537955435e-08
44		1.208676077393893e-04
	0.000000000000000e+00
	0.000000000000000e+00
	3.956669613030537e+00
	5.074708080452694e-02
	2.004247468878528e+00
	5.182532472651928e-02
	6.559892356565368e-01
	-2.282274649259453e-03
	2.050580454337963e-09
	-1.085877947652792e-07
45		1.417309137929509e-04
	0.000000000000000e+00
	0.000000000000000e+00
	2.913504310352456e+00
	5.532054530718028e-02
	1.484990362985473e+00
	5.647641561849061e-02
	6.419731802360507e-01
	-1.655450891155930e-03
	2.590628236790718e-09
	-1.070390322347622e-07
46		1.737465175973727e-04
	0.000000000000000e+00
	0.000000000000000e+00
	1.312724120131367e+00
	7.881594662289339e-02
	6.964822406410002e-01
	8.024036115063296e-02
	6.053081728794807e-01
	-6.867161008975442e-04
	6.168459933869303e-09
	-1.329491424886681e-07
47		2.000010000000000e-04
	0.000000000000000e+00
	0.000000000000000e+00
	0.000000000000000e+00
	-1.720489763952008e-03
	-2.672673864571867e-04
	-5.345347729143734e-04
	4.635350955548436e-03
	5.181602127159954e-07
	-2.705161520435416e-08
	-1.705595661812801e-07
48		2.004573324370332e-04
	0.000000000000000e+00
	0.000000000000000e+00
	0.000000000000000e+00
	-3.749463813436159e-04
	-6.362423044963881e-05
	-1.272484608992776e-04
	7.508169808771430e-04
	2.256436822877845e-08
	3.356440009791929e-09
	-1.710794974464562e-11
49		2.013699973110995e-04
	0.000000000000000e+00
	0.000000000000000e+00
	0.000000000000000e+00
	2.166930937577845e-04
	3.898798112033312e-05
	7.797596224066624e-05
	-5.028321894095495e-04
	-1.751993999541021e-08
	-1.662795955428661e-09
	1.710434955127110e-11
50		2.019052159936591e-04
	0.000000000000000e+00
	0.000000000000000e+00
	0.000000000000000e+00
	-7.812828503181061e-05
	-1.602893523757459e-05
	-3.205787047514918e-05
	2.507787648026995e-04
	1.112348429899819e-08
	1.147667188598491e-10
	-1.709821218807541e-11
51		2.023195888835027e-04
	0.000000000000000e+00
	0.000000000000000e+00
	0.000000000000000e+00
	1.640649380457096e-05
	4.316202409157953e-06
	8.632404818315906e-06
	-1.004524872674541e-04
	-6.087764160349451e-09
	6.247015284505191e-10
	1.709028823773223e-11
52		2.027107598698638e-04
	0.000000000000000e+00
	0.000000000000000e+00
	0.000000000000000e+00
	-1.211721122654414e-06
	-5.100016677147408e-07
	-1.020003335429482e-06
	3.884697805474704e-05
	3.393858984624856e-09
	-8.099765179307040e-10
	-1.708189832108627e-11
53		2.031109996058350e-04
	0.000000000000000e+00
	0.000000000000000e+00
	0.000000000000000e+00
	-9.669046378058106e-07
	-5.293615744350810e-07
	-1.058723148870162e-06
	-1.583736313302823e-05
	-2.127795622452508e-09
	8.087953519684586e-10
	1.707370250767869e-11
54		2.036183213634188e-04
	0.000000000000000e+00
	0.000000000000000e+00
	0.000000000000000e+00
	8.188384171527694e-07
	7.512778386244451e-07
	1.502555677248890e-06
	8.240671852412656e-06
	1.616563775410991e-09
	-7.704259661937088e-10
	-1.706723940747480e-11
55		2.043672446285062e-04
	0.000000000000000e+00
	0.000000000000000e+00
	0.000000000000000e+00
	-5.906070385565617e-07
	-7.952873204310163e-07
	-1.590574640862033e-06
	-5.471223450052342e-06
	-1.397796236468420e-09
	7.390989093033406e-10
	1.706286269155085e-11
56		2.056192238715303e-04
	0.000000000000000e+00
	0.000000000000000e+00
	0.000000000000000e+00
	4.622407090956502e-07
	8.017191771829655e-07
	1.603438354365931e-06
	4.344827581679886e-06
	1.297914886839350e-09
	-7.197569337061874e-10
	-1.706024511671904e-11
57		2.079724980041925e-04
	0.000000000000000e+00
	0.000000000000000e+00
	0.000000000000000e+00
	-3.998596329456025e-07
	-8.012776599118701e-07
	-1.602555319823740e-06
	-3.860895931209601e-06
	-1.251834791918660e-09
	7.094301972092869e-10
	1.705885269013725e-11
58		2.125157216909234e-04
	0.000000000000000e+00
	0.000000000000000e+00
	0.000000000000000e+00
	3.693445724524103e-07
	8.002267596692547e-07
	1.600453519338509e-06
	3.636454772436804e-06
	1.229612387862250e-09
	-7.040862535898828e-10
	-1.705813149340397e-11
59		2.216021690643850e-04
	0.000000000000000e+00
	0.000000000000000e+00
	0.000000000000000e+00
	-3.545581285009581e-07
	-7.995175854637410e-07
	-1.599035170927482e-06
	-3.530305371273764e-06
	-1.218887007319240e-09
	7.014175206445878e-10
	1.705777090677044e-11
60		2.397750638113084e-04
	0.000000000000000e+00
	0.000000000000000e+00
	0.000000000000000e+00
	3.472822415204016e-07
	7.991194505749934e-07
	1.598238901149987e-06
	3.478691909909087e-06
	1.213617731488983e-09
	-7.000839238152422e-10
	-1.705759061618117e-11
61		2.761208533051551e-04
	0.000000000000000e+00
	0.000000000000000e+00
	0.000000000000000e+00
	-3.436743076479843e-07
	-7.989102560539993e-07
	-1.597820512107999e-06
	-3.453232753410184e-06
	-1.211005473334167e-09
	6.994175297465456e-10
	1.705750047166106e-11
62		3.488124322928485e-04
	0.000000000000000e+00
	0.000000000000000e+00
	0.000000000000000e+00
	3.418772895584641e-07
	7.988028314065023e-07
	1.597605662813005e-06
	3.440595628584268e-06
	1.209705195793679e-09
	-6.990842677593242e-10
	-1.705745539956366e-11
63		4.488124322928485e-04
	0.000000000000000e+00
	0.000000000000000e+00
	0.000000000000000e+00
	-3.405745083160234e-07
	-7.987239281452342e-07
	-1.597447856290468e-06
	-3.431441441633729e-06
	-1.208762154704363e-09
	6.988421723520502e-10
	1.705742263602173e-11
64		5.488124322928485e-04
	0.000000000000000e+00
	0.000000000000000e+00
	0.000000000000000e+00
	3.392739781144685e-07
	7.986439247549605e-07
	1.597287849509921e-06
	3.422321356131690e-06
	1.207821222686831e-09
	-6.985999915190346e-10
	-1.705738987256021e-11
65		6.488124322928486e-04
	0.000000000000000e+00
	0.000000000000000e+00
	0.000000000000000e+00
	-3.379762913309805e-07
	-7.985631823700334e-07
	-1.597126364740067e-06
	-3.413229149522607e-06
	-1.206882146987326e-09
	6.983579136230311e-10
	1.705735710913845e-11
66		7.488124322928486e-04
	0.000000000000000e+00
	0.000000000000000e+00
	0.000000000000000e+00
	3.366809829006382e-07
	7.984814255549469e-07
	1.596962851109894e-06
	3.404169477254266e-06
	1.205945111868895e-09
	-6.981157902780567e-10
	-1.705732434579243e-11
67		8.488124322928487e-04
	0.000000000000000e+00
	0.000000000000000e+00
	0.000000000000000e+00
	-3.353884906428624e-07
	-7.983989220714695e-07
	-1.596797844142939e-06
	-3.395137756168476e-06
	-1.205009933037181e-09
	6.978737626846724e-10
	1.705729158249875e-11
68		9.488124322928487e-04
	0.000000000000000e+00
	0.000000000000000e+00
	0.000000000000000e+00
	3.340983783213857e-07
	7.983154140379368e-07
	1.596630828075874e-06
	3.386138329176631e-06
	1.204076781471008e-09
	-6.976316901998252e-10
	-1.705725881928365e-11
69		1.048812432292849e-03
	0.000000000000000e+00
	0.000000000000000e+00
	0.000000000000000e+00
	-3.328110791743813e-07
	-7.982311662450826e-07
	-1.596462332490165e-06
	-3.377166677381993e-06
	-1.203145476241348e-09
	6.973897139637365e-10
	1.705722605612349e-11
70		1.148812432292849e-03
	0.000000000000000e+00
	0.000000000000000e+00
	0.000000000000000e+00
	3.315261613638675e-07
	7.981459236845322e-07
	1.596291847369064e-06
	3.368227081350734e-06
	1.202216185054769e-09
	-6.971476933892987e-10
	-1.705719329300955e-11
71		1.248812432292849e-03
	0.000000000000000e+00
	0.000000000000000e+00
	0.000000000000000e+00
	-3.302440536348625e-07
	-7.980599482276176e-07
	-1.596119896455235e-06
	-3.359315085506337e-06
	-1.201288730306255e-09
	6.969057695551777e-10
	1.705716053000608e-11
72		1.348812432292849e-03
	0.000000000000000e+00
	0.000000000000000e+00
	0.000000000000000e+00
	3.289643284630008e-07
	7.979729876881619e-07
	1.595945975376324e-06
	3.350434908992577e-06
	1.200363276470127e-09
	-6.966638019313698e-10
	-1.705712776703532e-11
73		1.448812432292849e-03
	0.000000000000000e+00
	0.000000000000000e+00
	0.000000000000000e+00
	-3.276874101864660e-07
	-7.978853010693370e-07
	-1.595770602138674e-06
	-3.341582158631688e-06
	-1.199439649225430e-09
	6.964219315338663e-10
	1.705709500413272e-11
74		1.548812432292849e-03
	0.000000000000000e+00
	0.000000000000000e+00
	0.000000000000000e+00
	3.264128755116011e-07
	7.977966389577283e-07
	1.595593277915457e-06
	3.332760993048531e-06
	1.198518009854229e-09
	-6.961800178909954e-10
	-1.705706224128949e-11
75		1.648812432292849e-03
	0.000000000000000e+00
	0.000000000000000e+00
	0.000000000000000e+00
	-3.251411444529853e-07
	-7.977072575376085e-07
	-1.595414515075217e-06
	-3.323967080555501e-06
	-1.197598187279005e-09
	6.959382019548446e-10
	1.705702947850992e-11
